 ****** HSPICE -- O-2018.09 win64 (Aug 26 2018) ******                          
  Copyright (c) 1986 - 2018 by Synopsys, Inc. All Rights Reserved.              
  This software and the associated documentation are proprietary
  to Synopsys, Inc. This software may only be used in accordance
  with the terms and conditions of a written license agreement with
  Synopsys, Inc. All other use, reproduction, or distribution of
  this software is strictly prohibited.

****** HSPICE -- O-2018.09 win64 (Aug 26 2018) ******                           
 Input File: validate.sp                                                          Input File: validate.sp                                                       
  Command line options: C:\synopsys\Hspice_O-2018.09\WIN64\hspice.com validate.sp

 lic:    lic:  

 lic: FLEXlm: SDK_11.6.9.6   lic: FLEXlm: SDK_11.6.9.6 

 lic: USER:   qmle                 HOSTNAME: ELEG-CSRCW26   lic: USER:   qmle                 HOSTNAME: ELEG-CSRCW26 

 lic: HOSTID: "005056c00008"       PID:      2224   lic: HOSTID: "005056c00008"       PID:      2224 

 lic: Using FLEXlm license file:   lic: Using FLEXlm license file: 

 lic: \\elegclusterfs.ddns.uark.edu\ELEG_Public\Synopsys_Key_Site_10000045.txt   lic: \\elegclusterfs.ddns.uark.edu\ELEG_Public\Synopsys_Key_Site_10000045.txt 

 lic: Checkout 1 hspice   lic: Checkout 1 hspice 

 lic: License/Maintenance for hspice will expire on 25-jan-2019/2017.12   lic: License/Maintenance for hspice will expire on 25-jan-2019/2017.12 

 lic: 1(in_use)/50(total) FLOATING license(s) on SERVER \\elegclusterfs.ddns.uar  lic: 1(in_use)/50(total) FLOATING license(s) on SERVER \\elegclusterfs.ddns.ua
 rk.edu\ELEG_Public\Sy

 lic:     lic:   

 init: begin read circuit files, cpu clock= 3.77E-01                            
       option search = C:/synopsys/Hspice_O-2018.09/parts/behave/               
       option search = C:/synopsys/Hspice_O-2018.09/parts/AD/                   
       option search = C:/synopsys/Hspice_O-2018.09/parts/XILINX/               
       option search = C:/synopsys/Hspice_O-2018.09/parts/TLINE/                
       option search = C:/synopsys/Hspice_O-2018.09/parts/TI/                   
       option search = C:/synopsys/Hspice_O-2018.09/parts/SIGNET/               
       option search = C:/synopsys/Hspice_O-2018.09/parts/PCI/                  
       option search = C:/synopsys/Hspice_O-2018.09/parts/LIN_TECH/             
       option search = C:/synopsys/Hspice_O-2018.09/parts/PET/                  
       option search = C:/synopsys/Hspice_O-2018.09/parts/DI0/                  
       option search = C:/synopsys/Hspice_O-2018.09/parts/COMLINE/              
       option search = C:/synopsys/Hspice_O-2018.09/parts/BURR_BRM/             
       option search = C:/synopsys/Hspice_O-2018.09/parts/BJT/                  
       option runlvl                                                            
       option post =     2.00                                                   
 init: end read circuit files, cpu clock= 3.81E-01 peak memory=      51 mb      
 init: begin check errors, cpu clock= 3.81E-01                                    
      

Element variations(Local):   element              parameter
 *****************************************************************
 ******  option summary
 ******
 runlvl  = 3         bypass  = 2.0000    

 init: end check errors, cpu clock= 3.83E-01 peak memory=      51 mb            
 init: begin setup matrix, pivot=     0 cpu clock= 3.83E-01                     
       establish matrix -- done, cpu clock= 3.83E-01 peak memory=      51 mb    
       re-order matrix -- done, cpu clock= 3.83E-01 peak memory=      51 mb     
 init: end setup matrix, cpu clock= 3.83E-01 peak memory=      51 mb            
 dcop: begin dcop, cpu clock= 3.83E-01                                           **info** dc convergence successful at Newton-Raphson method 
1****** HSPICE -- O-2018.09 win64 (Aug 26 2018) ******                          
 ******  
 * 2018-09-28 16:10:28

 ****** operating point information tnom=  25.000 temp=  25.000 ******
 ****** operating point status is all       simulation time is     0.     
    node    =voltage      node    =voltage      node    =voltage

 +0:n1      =   0.      0:n2      =   0.      0:n3      =   0.     
 +0:n4      =   0.     


 **** voltage sources

 subckt             
 element  0:vs      
  volts      0.     
  current    0.     
  power      0.     

     total voltage source power dissipation=    0.            watts



 **** resistors

 subckt                                   
 element  0:r1       0:r2       0:r3      
  r value    1.0000m    1.0000m    1.0000k
  v drop     0.         0.         0.     
  current    0.         0.         0.     
  power      0.         0.         0.     


 **** inductors

 subckt                        
 element  0:l1       0:l2      
  l value    1.0000n    1.0000n
  v drop     0.         0.     
  current    0.         0.     
  power      0.         0.     


 dcop: end dcop, cpu clock= 3.89E-01 peak memory=      51 mb tot_iter=       1  
 output: validate.ac0                                                           
 sweep: ac ac0    begin, #sweeps=   1 cpu clock= 3.90E-01                       
 ac: frequency=1.00e+03    
 sweep: ac ac0    end, cpu clock= 3.90E-01 peak memory=      51 mb              
          ***** job concluded

>info:         ***** hspice job concluded                                        ******  
 * 2018-09-28 16:10:28

 ****** job statistics summary tnom=  25.000 temp=  25.000 ******

  ******  HSPICE Threads Information  ******

  Command Line Threads Count :     1
  Available CPU Count        :     8
  Actual Threads Count       :     1


  ******  Circuit Statistics  ******
  # nodes       =       5 # elements   =       7
  # resistors   =       3 # capacitors =       0 # inductors   =       2
  # mutual_inds =       1 # vccs       =       0 # vcvs        =       0
  # cccs        =       0 # ccvs       =       0 # volt_srcs   =       1
  # curr_srcs   =       0 # diodes     =       0 # bjts        =       0
  # jfets       =       0 # mosfets    =       0 # U elements  =       0
  # T elements  =       0 # W elements =       0 # B elements  =       0
  # S elements  =       0 # P elements =       0 # va device   =       0
  # vector_srcs =       0 # N elements =       0


  ******  Runtime Statistics (seconds)  ******

  analysis           time    # points   tot. iter  conv.iter
  op point           0.01           1           1
  ac analysis        0.00           1           1
  readin             0.01
  errchk             0.00
  setup              0.00
  output             0.00


           peak memory used         51.29 megabytes
           total cpu time            0.02 seconds
           total elapsed time        0.39 seconds
           job started at     11:14:36 09/28/2018
           job ended   at     11:14:37 09/28/2018



           total cpu time            0.02 seconds                               
           total elapsed time            0.39 seconds                           
           job started at     11:14:36 09/28/2018                               
           job ended   at     11:14:37 09/28/2018                               
>info:         ***** hspice job concluded

 lic: Release hspice token(s)   lic: Release hspice token(s) 
 lic: total license checkout elapse time:        0.37(s)
